Freq.	V(v1)	V(v2)
Step Information: X=100  (Run: 1/4)
1.00000000000000e-002	(-1.26720102118943e-005dB,-2.38510285200335e-004°)	(-2.43130558813397e-005dB,-3.11182987193126e-004°)
1.25892541179417e-002	(-1.26720319787256e-005dB,-3.00266659012727e-004°)	(-2.43130796115764e-005dB,-3.91756170295190e-004°)
1.58489319246111e-002	(-1.26720664785554e-005dB,-3.78013327345162e-004°)	(-2.43131172368465e-005dB,-4.93191798011271e-004°)
1.99526231496888e-002	(-1.26721211695031e-005dB,-4.75890583790703e-004°)	(-2.43131768652380e-005dB,-6.20891687403831e-004°)
2.51188643150958e-002	(-1.26722078375963e-005dB,-5.99110749165707e-004°)	(-2.43132713715229e-005dB,-7.81656323242421e-004°)
3.16227766016838e-002	(-1.26723452004584e-005dB,-7.54235746599818e-004°)	(-2.43134211512843e-005dB,-9.84047008615444e-004°)
3.98107170553497e-002	(-1.26725629073448e-005dB,-9.49526547870211e-004°)	(-2.43136585365839e-005dB,-1.23884178553796e-003°)
5.01187233627273e-002	(-1.26729079480731e-005dB,-1.19538310027134e-003°)	(-2.43140347699981e-005dB,-1.55960940499014e-003°)
6.30957344480194e-002	(-1.26734548035480e-005dB,-1.50489816172965e-003°)	(-2.43146310625920e-005dB,-1.96343191238321e-003°)
7.94328234724282e-002	(-1.26743215037665e-005dB,-1.89455453790147e-003°)	(-2.43155761080834e-005dB,-2.47181432876288e-003°)
1.00000000000000e-001	(-1.26756951352804e-005dB,-2.38510285166976e-003°)	(-2.43170739143765e-005dB,-3.11182987158891e-003°)
1.25892541179417e-001	(-1.26778721935387e-005dB,-3.00266658946168e-003°)	(-2.43194477789459e-005dB,-3.91756170226882e-003°)
1.58489319246111e-001	(-1.26813226027526e-005dB,-3.78013327212359e-003°)	(-2.43232101015196e-005dB,-4.93191797874978e-003°)
1.99526231496888e-001	(-1.26867911305076e-005dB,-4.75890583525726e-003°)	(-2.43291729869640e-005dB,-6.20891687131892e-003°)
2.51188643150958e-001	(-1.26954581645324e-005dB,-5.99110748637008e-003°)	(-2.43386235113304e-005dB,-7.81656322699830e-003°)
3.16227766016838e-001	(-1.27091944845365e-005dB,-7.54235745544924e-003°)	(-2.43536015868493e-005dB,-9.84047007532832e-003°)
3.98107170553498e-001	(-1.27309650855496e-005dB,-9.49526545765421e-003°)	(-2.43773402355658e-005dB,-1.23884178337787e-002°)
5.01187233627273e-001	(-1.27654691683185e-005dB,-1.19538309607174e-002°)	(-2.44149634616267e-005dB,-1.55960940068018e-002°)
6.30957344480194e-001	(-1.28201544426957e-005dB,-1.50489815335034e-002°)	(-2.44745922493814e-005dB,-1.96343190378372e-002°)
7.94328234724282e-001	(-1.29068247701983e-005dB,-1.89455452118253e-002°)	(-2.45690975182340e-005dB,-2.47181431160464e-002°)
1.00000000000000e+000	(-1.30441879726313e-005dB,-2.38510281831110e-002°)	(-2.47188782650596e-005dB,-3.11182983735372e-002°)
1.25892541179417e+000	(-1.32618939839710e-005dB,-3.00266652290240e-002°)	(-2.49562647554838e-005dB,-3.91756163396064e-002°)
1.58489319246112e+000	(-1.36069347395928e-005dB,-3.78013313932036e-002°)	(-2.53324969732847e-005dB,-4.93191784245704e-002°)
1.99526231496888e+000	(-1.41537874544380e-005dB,-4.75890557028000e-002°)	(-2.59287848136290e-005dB,-6.20891659937914e-002°)
2.51188643150958e+000	(-1.50204905379030e-005dB,-5.99110695767097e-002°)	(-2.68738372996988e-005dB,-7.81656268440715e-002°)
3.16227766016838e+000	(-1.63941221803600e-005dB,-7.54235640055591e-002°)	(-2.83716443751455e-005dB,-9.84046899271675e-002°)
3.98107170553498e+000	(-1.85711811687025e-005dB,-9.49526335286562e-002°)	(-3.07455081588171e-005dB,-1.23884156736849e-001°)
5.01187233627273e+000	(-2.20215860515071e-005dB,-1.19538267611130e-001°)	(-3.45078276028103e-005dB,-1.55960896968491e-001°)
6.30957344480194e+000	(-2.74901064875856e-005dB,-1.50489731541941e-001°)	(-4.04706992926592e-005dB,-1.96343104383541e-001°)
7.94328234724283e+000	(-3.61571203531271e-005dB,-1.89455284929152e-001°)	(-4.99212070437268e-005dB,-2.47181259578317e-001°)
1.00000000000000e+001	(-4.98933941831487e-005dB,-2.38509948245310e-001°)	(-6.48992348620248e-005dB,-3.11182641384294e-001°)
1.25892541179417e+001	(-7.16638772407594e-005dB,-3.00265986700052e-001°)	(-8.86377650242316e-005dB,-3.91755480316850e-001°)
1.58489319246112e+001	(-1.06167657553027e-004dB,-3.78011985908139e-001°)	(-1.26260688927864e-004dB,-4.93190421326619e-001°)
1.99526231496888e+001	(-1.60852187552315e-004dB,-4.75887907281840e-001°)	(-1.85888726234868e-004dB,-6.20888940566725e-001°)
2.51188643150959e+001	(-2.47520632306249e-004dB,-5.99105408859671e-001°)	(-2.80392096669803e-004dB,-7.81650842613162e-001°)
3.16227766016839e+001	(-3.84879115702578e-004dB,-7.54225091387202e-001°)	(-4.30168086900324e-004dB,-9.84036073421412e-001°)
3.98107170553498e+001	(-6.02573258677203e-004dB,-9.49505288238347e-001°)	(-6.67542617885760e-004dB,-1.23881996727043e+000°)
5.01187233627273e+001	(-9.47584216655621e-004dB,-1.19534068271668e+000°)	(-1.04374480337149e-003dB,-1.55956587281299e+000°)
6.30957344480195e+001	(-1.49436208858290e-003dB,-1.50481353070426e+000°)	(-1.63995722473376e-003dB,-1.96334505740060e+000°)
7.94328234724284e+001	(-2.36087717927320e-003dB,-1.89438568668026e+000°)	(-2.58482025698088e-003dB,-2.47164104018582e+000°)
1.00000000000000e+002	(-3.73403666769995e-003dB,-2.38476598041145e+000°)	(-4.08215150995838e-003dB,-3.11148414671180e+000°)
1.25892541179417e+002	(-5.90990991416498e-003dB,-3.00199454163426e+000°)	(-6.45482033806155e-003dB,-3.91687198937118e+000°)
1.58489319246112e+002	(-9.35733728017599e-003dB,-3.77879267239559e+000°)	(-1.02141391349226e-002dB,-4.93054213327400e+000°)
1.99526231496889e+002	(-1.48183823272060e-002dB,-4.75623197300100e+000°)	(-1.61694773203371e-002dB,-6.20617268676735e+000°)
2.51188643150959e+002	(-2.34666339008154e-002dB,-5.98577554386611e+000°)	(-2.56010768068496e-002dB,-7.81109098007883e+000°)
3.16227766016839e+002	(-3.71558387198856e-002dB,-7.53172866176090e+000°)	(-4.05316689896321e-002dB,-9.82956135969222e+000°)
3.98107170553498e+002	(-5.88083268240078e-002dB,-9.47408922543706e+000°)	(-6.41512834313269e-002dB,-1.23666831539246e+001°)
5.01187233627274e+002	(-9.30166560924060e-002dB,-1.19116764188865e+001°)	(-1.01476444054397e-001dB,-1.55528254369686e+001°)
6.30957344480195e+002	(-1.46962754022510e-001dB,-1.49651786459463e+001°)	(-1.60360243623563e-001dB,-1.95482940723105e+001°)
7.94328234724284e+002	(-2.31790912019075e-001dB,-1.87792950508092e+001°)	(-2.53008753762867e-001dB,-2.45474615385995e+001°)
1.00000000000000e+003	(-3.64583650678025e-001dB,-2.35222949080723e+001°)	(-3.98182430473790e-001dB,-3.07807302453756e+001°)
1.25892541179417e+003	(-5.71028430944814e-001dB,-2.93799269265029e+001°)	(-6.24215894219288e-001dB,-3.85112722269635e+001°)
1.58489319246112e+003	(-8.88613407095859e-001dB,-3.65387305497192e+001°)	(-9.72762349542875e-001dB,-4.80215188197222e+001°)
1.99526231496889e+003	(-1.36956920204584e+000dB,-4.51523175919610e+001°)	(-1.50257797781031e+000dB,-5.95826948446788e+001°)
2.51188643150959e+003	(-2.08165192899169e+000dB,-5.52859247004816e+001°)	(-2.29157442759114e+000dB,-7.34020307814353e+001°)
3.16227766016839e+003	(-3.10361545661191e+000dB,-6.68446752814840e+001°)	(-3.43414397360770e+000dB,-8.95516894287909e+001°)
3.98107170553499e+003	(-4.51243599834726e+000dB,-7.95126322860016e+001°)	(-5.03094645235679e+000dB,-1.07903834778099e+002°)
5.01187233627274e+003	(-6.36340859520736e+000dB,-9.27508743795593e+001°)	(-7.17221962696914e+000dB,-1.28115604104883e+002°)
6.30957344480195e+003	(-8.67153152261181e+000dB,-1.05890518334124e+002°)	(-9.92245589714534e+000dB,-1.49693631049691e+002°)
7.94328234724284e+003	(-1.14058478996201e+001dB,-1.18294550259057e+002°)	(-1.33165037296861e+001dB,-1.72106226800684e+002°)
1.00000000000000e+004	(-1.45008333990520e+001dB,-1.29503147877064e+002°)	(-1.73681683855865e+001dB,1.65139871268188e+002°)
1.25892541179417e+004	(-1.78768882314109e+001dB,-1.39292182789753e+002°)	(-2.20798800919831e+001dB,1.42505350805987e+002°)
1.58489319246112e+004	(-2.14583108063583e+001dB,-1.47644722970361e+002°)	(-2.74414144897267e+001dB,1.20456338373362e+002°)
1.99526231496889e+004	(-2.51829245754601e+001dB,-1.54682198958632e+002°)	(-3.34189334166298e+001dB,9.94347601761303e+001°)
2.51188643150959e+004	(-2.90042097227231e+001dB,-1.60598643315761e+002°)	(-3.99475635708583e+001dB,7.97156007834278e+001°)
3.16227766016839e+004	(-3.28893370877639e+001dB,-1.65617294493200e+002°)	(-4.69362058772952e+001dB,6.11907704546366e+001°)
3.98107170553499e+004	(-3.68158915626286e+001dB,-1.69971251550427e+002°)	(-5.42739317763508e+001dB,4.31161807247711e+001°)
5.01187233627274e+004	(-4.07686300395938e+001dB,-1.73904694965658e+002°)	(-6.17996569090305e+001dB,2.37878241890321e+001°)
6.30957344480196e+004	(-4.47364576631217e+001dB,-1.77694167832336e+002°)	(-6.91445846780036e+001dB,3.72411849732698e-001°)
7.94328234724285e+004	(-4.87088009200393e+001dB,1.78303397532647e+002°)	(-7.54212549066896e+001dB,-2.90432419156506e+001°)
1.00000000000000e+005	(-5.26686477972290e+001dB,1.73559274662178e+002°)	(-7.96925251026729e+001dB,-5.97568904477392e+001°)
Step Information: X=1K  (Run: 2/4)
1.00000000000000e-002	(-1.26720102118943e-005dB,-2.38510285200336e-004°)	(-2.43415965393123e-005dB,-9.59189915708445e-004°)
1.25892541179417e-002	(-1.26720319777613e-005dB,-3.00266659012729e-004°)	(-2.43418185040089e-005dB,-1.20754855961488e-003°)
1.58489319246111e-002	(-1.26720664775911e-005dB,-3.78013327345165e-004°)	(-2.43421702877973e-005dB,-1.52021356766028e-003°)
1.99526231496888e-002	(-1.26721211704675e-005dB,-4.75890583790710e-004°)	(-2.43427278461431e-005dB,-1.91383549165320e-003°)
2.51188643150958e-002	(-1.26722078395250e-005dB,-5.99110749165720e-004°)	(-2.43436115100937e-005dB,-2.40937613437872e-003°)
3.16227766016838e-002	(-1.26723452023870e-005dB,-7.54235746599843e-004°)	(-2.43450120202992e-005dB,-3.03322484202590e-003°)
3.98107170553497e-002	(-1.26725629073448e-005dB,-9.49526547870261e-004°)	(-2.43472316701599e-005dB,-3.81860383308454e-003°)
5.01187233627273e-002	(-1.26729079471088e-005dB,-1.19538310027144e-003°)	(-2.43507495909786e-005dB,-4.80733740259141e-003°)
6.30957344480194e-002	(-1.26734548016194e-005dB,-1.50489816172985e-003°)	(-2.43563251098340e-005dB,-6.05207921828637e-003°)
7.94328234724282e-002	(-1.26743215056952e-005dB,-1.89455453790187e-003°)	(-2.43651617213917e-005dB,-7.61911632028731e-003°)
1.00000000000000e-001	(-1.26756951362448e-005dB,-2.38510285167056e-003°)	(-2.43791667916689e-005dB,-9.59189914742437e-003°)
1.25892541179417e-001	(-1.26778721973960e-005dB,-3.00266658946327e-003°)	(-2.44013633463197e-005dB,-1.20754855768744e-002°)
1.58489319246111e-001	(-1.26813226075743e-005dB,-3.78013327212676e-003°)	(-2.44365425113958e-005dB,-1.52021356381454e-002°)
1.99526231496888e-001	(-1.26867911353292e-005dB,-4.75890583526359e-003°)	(-2.44922977315198e-005dB,-1.91383548397992e-002°)
2.51188643150958e-001	(-1.26954581732113e-005dB,-5.99110748638270e-003°)	(-2.45806637977751e-005dB,-2.40937611906853e-002°)
3.16227766016838e-001	(-1.27091944980371e-005dB,-7.54235745547442e-003°)	(-2.47207145706130e-005dB,-3.03322481147805e-002°)
3.98107170553498e-001	(-1.27309651086935e-005dB,-9.49526545770444e-003°)	(-2.49426800898283e-005dB,-3.81860377213357e-002°)
5.01187233627273e-001	(-1.27654692020700e-005dB,-1.19538309608176e-002°)	(-2.52944717139579e-005dB,-4.80733728097822e-002°)
6.30957344480194e-001	(-1.28201544986268e-005dB,-1.50489815337033e-002°)	(-2.58520238369034e-005dB,-6.05207897563616e-002°)
7.94328234724282e-001	(-1.29068248560236e-005dB,-1.89455452122243e-002°)	(-2.67356843465134e-005dB,-7.61911583613653e-002°)
1.00000000000000e+000	(-1.30441881134233e-005dB,-2.38510281839071e-002°)	(-2.81361917351619e-005dB,-9.59189818141665e-002°)
1.25892541179417e+000	(-1.32618942057667e-005dB,-3.00266652306124e-002°)	(-3.03558459762855e-005dB,-1.20754836494359e-001°)
1.58489319246112e+000	(-1.36069350906085e-005dB,-3.78013313963729e-002°)	(-3.38737599180267e-005dB,-1.52021317924007e-001°)
1.99526231496888e+000	(-1.41537880127845e-005dB,-4.75890557091236e-002°)	(-3.94492753893531e-005dB,-1.91383471665323e-001°)
2.51188643150958e+000	(-1.50204914164069e-005dB,-5.99110695893269e-002°)	(-4.82858659162684e-005dB,-2.40937458805132e-001°)
3.16227766016838e+000	(-1.63941235767088e-005dB,-7.54235640307339e-002°)	(-6.22909030531280e-005dB,-3.03322175669968e-001°)
3.98107170553498e+000	(-1.85711833924464e-005dB,-9.49526335788864e-002°)	(-8.44873532774537e-005dB,-3.81859767705758e-001°)
5.01187233627273e+000	(-2.20215895848119e-005dB,-1.19538267711352e-001°)	(-1.19666261218014e-004dB,-4.80732511972860e-001°)
6.30957344480194e+000	(-2.74901121260262e-005dB,-1.50489731741910e-001°)	(-1.75420834525216e-004dB,-6.05205471083470e-001°)
7.94328234724283e+000	(-3.61571293773411e-005dB,-1.89455285328141e-001°)	(-2.63785279342141e-004dB,-7.61906742175068e-001°)
1.00000000000000e+001	(-4.98934086982891e-005dB,-2.38509949041391e-001°)	(-4.03831982126068e-004dB,-9.59180158283317e-001°)
1.25892541179417e+001	(-7.16639007811514e-005dB,-3.00265988288425e-001°)	(-6.25787269639343e-004dB,-1.20752909125034e+000°)
1.58489319246112e+001	(-1.06167696208566e-004dB,-3.78011989077299e-001°)	(-9.77553203449532e-004dB,-1.52017472398233e+000°)
1.99526231496888e+001	(-1.60852252215527e-004dB,-4.75887913604956e-001°)	(-1.53504080031173e-003dB,-1.91375799090717e+000°)
2.51188643150959e+001	(-2.47520743309290e-004dB,-5.99105421475345e-001°)	(-2.41853922892730e-003dB,-2.40922150822102e+000°)
3.16227766016839e+001	(-3.84879313032973e-004dB,-7.54225116556880e-001°)	(-3.81863951986789e-003dB,-3.03291634808117e+000°)
3.98107170553498e+001	(-6.02573625166351e-004dB,-9.49505338452449e-001°)	(-6.03727138206988e-003dB,-3.81798838830961e+000°)
5.01187233627273e+001	(-9.47584932451766e-004dB,-1.19534078288799e+000°)	(-9.55261799168749e-003dB,-4.80610968665644e+000°)
6.30957344480195e+001	(-1.49436356187066e-003dB,-1.50481373051226e+000°)	(-1.51216876377324e-002dB,-6.04963041774500e+000°)
7.94328234724284e+001	(-2.36088036475034e-003dB,-1.89438608515997e+000°)	(-2.39420989847131e-002dB,-7.61423289477596e+000°)
1.00000000000000e+002	(-3.73404385010372e-003dB,-2.38476677488406e+000°)	(-3.79065435430274e-002dB,-9.58216355855360e+000°)
1.25892541179417e+002	(-5.90992664729037e-003dB,-3.00199612492583e+000°)	(-6.00012191289290e-002dB,-1.20560861528570e+001°)
1.58489319246112e+002	(-9.35737719885326e-003dB,-3.77879582552330e+000°)	(-9.49252306769915e-002dB,-1.51635094115609e+001°)
1.99526231496889e+002	(-1.48184790932833e-002dB,-4.75623824559514e+000°)	(-1.50042495837974e-001dB,-1.90615389598409e+001°)
2.51188643150959e+002	(-2.34668707976133e-002dB,-5.98578800065529e+000°)	(-2.36817747156836e-001dB,-2.39412870135610e+001°)
3.16227766016839e+002	(-3.71564216106705e-002dB,-7.53175333332346e+000°)	(-3.72918087605710e-001dB,-3.00304915858788e+001°)
3.98107170553498e+002	(-5.88097624891316e-002dB,-9.47413788537148e+000°)	(-5.85136415540203e-001dB,-3.75915681938076e+001°)
5.01187233627274e+002	(-9.30201823342797e-002dB,-1.19117717759668e+001°)	(-9.13112587602635e-001dB,-4.69103999243943e+001°)
6.30957344480195e+002	(-1.46971356409241e-001dB,-1.49653636988399e+001°)	(-1.41332098620979e+000dB,-5.82692769942477e+001°)
7.94328234724284e+002	(-2.31811660014832e-001dB,-1.87796489827838e+001°)	(-2.16179926844746e+000dB,-7.18977976900024e+001°)
1.00000000000000e+003	(-3.64632862410624e-001dB,-2.35229575812440e+001°)	(-3.25283028899418e+000dB,-8.79028784784131e+001°)
1.25892541179417e+003	(-5.71142529026225e-001dB,-2.93811301454566e+001°)	(-4.79052462027261e+000dB,-1.06197170380021e+002°)
1.58489319246112e+003	(-8.88870244098946e-001dB,-3.65408205866359e+001°)	(-6.87321087517306e+000dB,-1.26466014197209e+002°)
1.99526231496889e+003	(-1.37012595305680e+000dB,-4.51557184634193e+001°)	(-9.57683533320191e+000dB,-1.48207850218283e+002°)
2.51188643150959e+003	(-2.08280180199508e+000dB,-5.52909266013899e+001°)	(-1.29470501703111e+001dB,-1.70831270998108e+002°)
3.16227766016839e+003	(-3.10584754834221e+000dB,-6.68508741410861e+001°)	(-1.70029636626717e+001dB,1.66262602073099e+002°)
3.98107170553499e+003	(-4.51644972540590e+000dB,-7.95179389142381e+001°)	(-2.17437533676895e+001dB,1.43662937228054e+002°)
5.01187233627274e+003	(-6.37002271859505e+000dB,-9.27503938172684e+001°)	(-2.71476598694729e+001dB,1.21961975995784e+002°)
6.30957344480195e+003	(-8.68149527076030e+000dB,-1.05875971831714e+002°)	(-3.31646440609301e+001dB,1.01719281211077e+002°)
7.94328234724284e+003	(-1.14196660064091e+001dB,-1.18254579143138e+002°)	(-3.97142180669471e+001dB,8.33549495089984e+001°)
1.00000000000000e+004	(-1.45187056031656e+001dB,-1.29423960764009e+002°)	(-4.66954812914184e+001dB,6.70280091645676e+001°)
1.25892541179417e+004	(-1.78987334450315e+001dB,-1.39157798383921e+002°)	(-5.40036469258927e+001dB,5.25535907097293e+001°)
1.58489319246112e+004	(-2.14837873973182e+001dB,-1.47436742086150e+002°)	(-6.15406998650035e+001dB,3.93374461682376e+001°)
1.99526231496889e+004	(-2.52114305931098e+001dB,-1.54379463136385e+002°)	(-6.92060241716032e+001dB,2.62454586350978e+001°)
2.51188643150959e+004	(-2.90349065281798e+001dB,-1.60176790722231e+002°)	(-7.68361875954438e+001dB,1.13692181172750e+001°)
3.16227766016839e+004	(-3.29211997093600e+001dB,-1.65047834275870e+002°)	(-8.40220844062449e+001dB,-7.83325125741490e+000°)
3.98107170553499e+004	(-3.68477281051129e+001dB,-1.69219920676075e+002°)	(-8.99074971312526e+001dB,-3.18434237613351e+001°)
5.01187233627274e+004	(-4.07990100301752e+001dB,-1.72929195653033e+002°)	(-9.38898217592511e+001dB,-5.49835885800161e+001°)
6.30957344480196e+004	(-4.47635166986201e+001dB,-1.76441466315070e+002°)	(-9.65674624952957e+001dB,-7.18057692528202e+001°)
7.94328234724285e+004	(-4.87298933340273e+001dB,1.79900149606805e+002°)	(-9.87389702099099e+001dB,-8.30828718378407e+001°)
1.00000000000000e+005	(-5.26797885835630e+001dB,1.75584232810242e+002°)	(-1.00738649579636e+002dB,-9.16384685004906e+001°)
Step Information: X=10K  (Run: 3/4)
1.00000000000000e-002	(-1.26720102128586e-005dB,-2.38510285200343e-004°)	(-2.46575570327247e-005dB,-7.43925901791615e-003°)
1.25892541179417e-002	(-1.26720319796900e-005dB,-3.00266659012744e-004°)	(-2.46776319941296e-005dB,-9.36547221560011e-003°)
1.58489319246111e-002	(-1.26720664785554e-005dB,-3.78013327345195e-004°)	(-2.47094486778171e-005dB,-1.17904309517573e-002°)
1.99526231496888e-002	(-1.26721211685388e-005dB,-4.75890583790771e-004°)	(-2.47598747399439e-005dB,-1.48432731134100e-002°)
2.51188643150958e-002	(-1.26722078385606e-005dB,-5.99110749165843e-004°)	(-2.48397946416437e-005dB,-1.86865736612809e-002°)
3.16227766016838e-002	(-1.26723452023870e-005dB,-7.54235746600090e-004°)	(-2.49664591533063e-005dB,-2.35250023310284e-002°)
3.98107170553497e-002	(-1.26725629112022e-005dB,-9.49526547870756e-004°)	(-2.51672088788017e-005dB,-2.96162230265289e-002°)
5.01187233627273e-002	(-1.26729079519304e-005dB,-1.19538310027243e-003°)	(-2.54853757292110e-005dB,-3.72846153294659e-002°)
6.30957344480194e-002	(-1.26734548074053e-005dB,-1.50489816173183e-003°)	(-2.59896361869033e-005dB,-4.69385488293299e-002°)
7.94328234724282e-002	(-1.26743215143741e-005dB,-1.89455453790582e-003°)	(-2.67888350984545e-005dB,-5.90921301623340e-002°)
1.00000000000000e-001	(-1.26756951526384e-005dB,-2.38510285167845e-003°)	(-2.80554798524275e-005dB,-7.43925808034086e-002°)
1.25892541179417e-001	(-1.26778722224685e-005dB,-3.00266658947903e-003°)	(-3.00629761313431e-005dB,-9.36547034489173e-002°)
1.58489319246111e-001	(-1.26813226422901e-005dB,-3.78013327215821e-003°)	(-3.32446423668679e-005dB,-1.17904272192042e-001°)
1.99526231496888e-001	(-1.26867911902960e-005dB,-4.75890583532635e-003°)	(-3.82872411398359e-005dB,-1.48432656659900e-001°)
2.51188643150958e-001	(-1.26954582600009e-005dB,-5.99110748650794e-003°)	(-4.62792156391304e-005dB,-1.86865588017328e-001°)
3.16227766016838e-001	(-1.27091946378648e-005dB,-7.54235745572433e-003°)	(-5.89456265921822e-005dB,-2.35249726823582e-001°)
3.98107170553498e-001	(-1.27309653285605e-005dB,-9.49526545820310e-003°)	(-7.90204973552230e-005dB,-2.96161638697371e-001°)
